T26A4 000:007.844   SEGGER J-Link V7.86 Log File
T26A4 000:008.078   DLL Compiled: Feb 15 2023 17:09:49
T26A4 000:008.091   Logging started @ 2025-09-26 08:38
T26A4 000:008.101 - 8.106ms
T26A4 000:008.121 JLINK_SetWarnOutHandler(...)
T26A4 000:008.135 - 0.019ms
T26A4 000:008.148 JLINK_OpenEx(...)
T26A4 000:012.819   Firmware: J-Link ARM V8 compiled Nov 28 2014 13:44:46
T26A4 000:014.513   Firmware: J-Link ARM V8 compiled Nov 28 2014 13:44:46
T26A4 000:022.234   Hardware: V8.00
T26A4 000:022.261   S/N: 788529232
T26A4 000:022.276   OEM: SEGGER
T26A4 000:022.290   Feature(s): RDI,FlashDL,FlashBP,JFlash,GDB
T26A4 000:025.938   TELNET listener socket opened on port 19021
T26A4 000:026.131   WEBSRV WEBSRV_Init(): Starting webserver thread(s)
T26A4 000:026.378   WEBSRV Webserver running on local port 19080
T26A4 000:037.532 - 29.403ms returns "O.K."
T26A4 000:037.581 JLINK_GetEmuCaps()
T26A4 000:037.594 - 0.018ms returns 0xB9FF7BBF
T26A4 000:037.611 JLINK_TIF_GetAvailable(...)
T26A4 000:038.785 - 1.198ms
T26A4 000:038.840 JLINK_SetErrorOutHandler(...)
T26A4 000:038.852 - 0.017ms
T26A4 000:038.913 JLINK_ExecCommand("ProjectFile = "E:\Git_Project\hms_first\Ç¶ÈëÊ½\temp_software\USER\JLinkSettings.ini"", ...). 
T26A4 000:056.425   Ref file found at: D:\Keil_v5\ARM\Segger\JLinkDevices.ref
T26A4 000:056.618   REF file references invalid XML file: C:\Program Files\SEGGER\JLink\JLinkDevices.xml
T26A4 000:057.858   Flash bank @ 0x90000000: SFL: Parsing sectorization info from ELF file
T26A4 000:057.884     FlashDevice.SectorInfo[0]: .SectorSize = 0x00010000, .SectorStartAddr = 0x00000000
T26A4 000:057.906   FlashBank @0x90000000: Sectorization info from SFL ELF file ignored because sectorization override from DLL / XML file is active.
T26A4 000:057.923   OFL: Init() present @ offset 0x00000649
T26A4 000:057.939   OFL: UnInit() present @ offset 0x00000663
T26A4 000:057.954   OFL: EraseSector() present @ offset 0x00000671
T26A4 000:057.968   OFL: ProgramPage() present @ offset 0x000006E9
T26A4 000:057.983   OFL: EraseChip() N/A
T26A4 000:057.997   OFL: BlankCheck() N/A
T26A4 000:058.012   OFL: Verify() N/A
T26A4 000:058.036   OFL: SEGGER_FL_Erase() N/A
T26A4 000:058.052   OFL: SEGGER_OPEN_Erase() N/A
T26A4 000:058.067   OFL: SEGGER_FL_Program() N/A
T26A4 000:058.082   OFL: SEGGER_OPEN_Program() N/A
T26A4 000:058.097   OFL: SEGGER_FL_Read() N/A
T26A4 000:058.111   OFL: SEGGER_OPEN_Read() N/A
T26A4 000:058.126   OFL: SEGGER_FL_CalcCRC() N/A
T26A4 000:058.141   OFL: SEGGER_OPEN_CalcCRC() N/A
T26A4 000:058.155   OFL: SEGGER_FL_Start() N/A
T26A4 000:058.170   OFL: SEGGER_OPEN_Start() N/A
T26A4 000:058.185   OFL: SEGGER_FL_GetFlashInfo() N/A
T26A4 000:058.199   OFL: SEGGER_OPEN_GetFlashInfo() N/A
T26A4 000:058.214   OFL: SEGGER_FL_Verify() N/A
T26A4 000:058.229   OFL: SEGGER_FL_CheckBlank() N/A
T26A4 000:058.243   OFL: SEGGER_FL_Prepare() N/A
T26A4 000:058.258   OFL: SEGGER_FL_Restore() N/A
T26A4 000:058.272   OFL: SEGGER_FL_EraseChip() N/A
T26A4 000:064.404   Device "STM32F429ZG" selected.
T26A4 000:065.003 - 26.102ms returns 0x00
T26A4 000:069.330 JLINK_ExecCommand("Device = STM32F429ZGTx", ...). 
T26A4 000:070.681   Flash bank @ 0x90000000: SFL: Parsing sectorization info from ELF file
T26A4 000:070.709     FlashDevice.SectorInfo[0]: .SectorSize = 0x00010000, .SectorStartAddr = 0x00000000
T26A4 000:070.727   FlashBank @0x90000000: Sectorization info from SFL ELF file ignored because sectorization override from DLL / XML file is active.
T26A4 000:070.743   OFL: Init() present @ offset 0x00000649
T26A4 000:070.759   OFL: UnInit() present @ offset 0x00000663
T26A4 000:070.774   OFL: EraseSector() present @ offset 0x00000671
T26A4 000:070.789   OFL: ProgramPage() present @ offset 0x000006E9
T26A4 000:070.804   OFL: EraseChip() N/A
T26A4 000:070.818   OFL: BlankCheck() N/A
T26A4 000:070.833   OFL: Verify() N/A
T26A4 000:070.847   OFL: SEGGER_FL_Erase() N/A
T26A4 000:070.862   OFL: SEGGER_OPEN_Erase() N/A
T26A4 000:070.877   OFL: SEGGER_FL_Program() N/A
T26A4 000:070.891   OFL: SEGGER_OPEN_Program() N/A
T26A4 000:070.987   OFL: SEGGER_FL_Read() N/A
T26A4 000:071.003   OFL: SEGGER_OPEN_Read() N/A
T26A4 000:071.018   OFL: SEGGER_FL_CalcCRC() N/A
T26A4 000:071.043   OFL: SEGGER_OPEN_CalcCRC() N/A
T26A4 000:071.058   OFL: SEGGER_FL_Start() N/A
T26A4 000:071.072   OFL: SEGGER_OPEN_Start() N/A
T26A4 000:071.087   OFL: SEGGER_FL_GetFlashInfo() N/A
T26A4 000:071.102   OFL: SEGGER_OPEN_GetFlashInfo() N/A
T26A4 000:071.117   OFL: SEGGER_FL_Verify() N/A
T26A4 000:071.131   OFL: SEGGER_FL_CheckBlank() N/A
T26A4 000:071.146   OFL: SEGGER_FL_Prepare() N/A
T26A4 000:071.161   OFL: SEGGER_FL_Restore() N/A
T26A4 000:071.176   OFL: SEGGER_FL_EraseChip() N/A
T26A4 000:077.512   Device "STM32F429ZG" selected.
T26A4 000:078.155 - 8.812ms returns 0x00
T26A4 000:078.183 JLINK_ExecCommand("DisableConnectionTimeout", ...). 
T26A4 000:078.200 - 0.008ms returns 0x01
T26A4 000:078.213 JLINK_GetHardwareVersion()
T26A4 000:078.224 - 0.015ms returns 80000
T26A4 000:078.236 JLINK_GetDLLVersion()
T26A4 000:078.246 - 0.015ms returns 78600
T26A4 000:078.258 JLINK_GetOEMString(...)
T26A4 000:078.284 JLINK_GetFirmwareString(...)
T26A4 000:078.295 - 0.016ms
T26A4 000:090.023 JLINK_GetDLLVersion()
T26A4 000:090.061 - 0.044ms returns 78600
T26A4 000:090.075 JLINK_GetCompileDateTime()
T26A4 000:090.085 - 0.015ms
T26A4 000:093.620 JLINK_GetFirmwareString(...)
T26A4 000:093.642 - 0.027ms
T26A4 000:097.224 JLINK_GetHardwareVersion()
T26A4 000:097.246 - 0.027ms returns 80000
T26A4 000:104.559 JLINK_GetSN()
T26A4 000:104.619 - 0.072ms returns 788529232
T26A4 000:111.614 JLINK_GetOEMString(...)
T26A4 000:119.308 JLINK_TIF_Select(JLINKARM_TIF_SWD)
T26A4 000:124.170 - 4.905ms returns 0x00
T26A4 000:124.225 JLINK_HasError()
T26A4 000:124.251 JLINK_SetSpeed(50000)
T26A4 000:124.995 - 0.785ms
T26A4 000:125.055 JLINK_GetId()
T26A4 000:129.781   InitTarget() start
T26A4 000:129.815    J-Link Script File: Executing InitTarget()
T26A4 000:134.497   SWD selected. Executing JTAG -> SWD switching sequence.
T26A4 000:150.531   DAP initialized successfully.
T26A4 000:198.833   InitTarget() end
T26A4 000:204.398   Found SW-DP with ID 0x2BA01477
T26A4 000:216.878   Old FW that does not support reading DPIDR via DAP jobs
T26A4 000:233.338   DPv0 detected
T26A4 000:237.002   CoreSight SoC-400 or earlier
T26A4 000:240.628   Scanning AP map to find all available APs
T26A4 000:256.647   AP[1]: Stopped AP scan as end of AP map has been reached
T26A4 000:263.359   AP[0]: AHB-AP (IDR: 0x24770011)
T26A4 000:268.170   Iterating through AP map to find AHB-AP to use
T26A4 000:288.053   AP[0]: Core found
T26A4 000:292.778   AP[0]: AHB-AP ROM base: 0xE00FF000
T26A4 000:304.495   CPUID register: 0x410FC241. Implementer code: 0x41 (ARM)
T26A4 000:309.967   Found Cortex-M4 r0p1, Little endian.
T26A4 000:311.786   -- Max. mem block: 0x00002408
T26A4 000:312.832   CPU_ReadMem(4 bytes @ 0xE000EDF0)
T26A4 000:314.028   CPU_ReadMem(4 bytes @ 0xE0002000)
T26A4 000:322.023   FPUnit: 6 code (BP) slots and 2 literal slots
T26A4 000:322.060   CPU_ReadMem(4 bytes @ 0xE000EDFC)
T26A4 000:323.161   CPU_WriteMem(4 bytes @ 0xE000EDFC)
T26A4 000:324.105   CPU_ReadMem(4 bytes @ 0xE0001000)
T26A4 000:325.104   CPU_WriteMem(4 bytes @ 0xE0001000)
T26A4 000:326.092   CPU_ReadMem(4 bytes @ 0xE000ED88)
T26A4 000:326.840   CPU_WriteMem(4 bytes @ 0xE000ED88)
T26A4 000:327.595   CPU_ReadMem(4 bytes @ 0xE000ED88)
T26A4 000:328.463   CPU_WriteMem(4 bytes @ 0xE000ED88)
T26A4 000:332.972   CoreSight components:
T26A4 000:336.635   ROMTbl[0] @ E00FF000
T26A4 000:336.667   CPU_ReadMem(64 bytes @ 0xE00FF000)
T26A4 000:338.105   CPU_ReadMem(32 bytes @ 0xE000EFE0)
T26A4 000:343.012   [0][0]: E000E000 CID B105E00D PID 000BB00C SCS-M7
T26A4 000:343.050   CPU_ReadMem(32 bytes @ 0xE0001FE0)
T26A4 000:347.968   [0][1]: E0001000 CID B105E00D PID 003BB002 DWT
T26A4 000:348.004   CPU_ReadMem(32 bytes @ 0xE0002FE0)
T26A4 000:353.040   [0][2]: E0002000 CID B105E00D PID 002BB003 FPB
T26A4 000:353.076   CPU_ReadMem(32 bytes @ 0xE0000FE0)
T26A4 000:358.035   [0][3]: E0000000 CID B105E00D PID 003BB001 ITM
T26A4 000:358.084   CPU_ReadMem(32 bytes @ 0xE0040FE0)
T26A4 000:362.992   [0][4]: E0040000 CID B105900D PID 000BB9A1 TPIU
T26A4 000:363.029   CPU_ReadMem(32 bytes @ 0xE0041FE0)
T26A4 000:368.200   [0][5]: E0041000 CID B105900D PID 000BB925 ETM
T26A4 000:369.974 - 244.943ms returns 0x2BA01477
T26A4 000:370.022 JLINK_GetDLLVersion()
T26A4 000:370.035 - 0.017ms returns 78600
T26A4 000:370.048 JLINK_CORE_GetFound()
T26A4 000:370.059 - 0.015ms returns 0xE0000FF
T26A4 000:370.178 JLINK_GetDebugInfo(0x100 = JLINKARM_ROM_TABLE_ADDR_INDEX)
T26A4 000:370.222   Value=0xE00FF000
T26A4 000:370.239 - 0.067ms returns 0
T26A4 000:374.263 JLINK_GetDebugInfo(0x100 = JLINKARM_ROM_TABLE_ADDR_INDEX)
T26A4 000:374.292   Value=0xE00FF000
T26A4 000:374.308 - 0.050ms returns 0
T26A4 000:374.320 JLINK_GetDebugInfo(0x101 = JLINKARM_DEBUG_INFO_ETM_ADDR_INDEX)
T26A4 000:374.332   Value=0xE0041000
T26A4 000:374.346 - 0.031ms returns 0
T26A4 000:374.359 JLINK_ReadMemEx(0xE0041FD0, 0x20 Bytes, Flags = 0x02000004)
T26A4 000:374.401   CPU_ReadMem(32 bytes @ 0xE0041FD0)
T26A4 000:375.491   Data:  04 00 00 00 00 00 00 00 00 00 00 00 00 00 00 00 ...
T26A4 000:375.525 - 1.171ms returns 32 (0x20)
T26A4 000:375.541 JLINK_GetDebugInfo(0x102 = JLINKARM_DEBUG_INFO_MTB_ADDR_INDEX)
T26A4 000:375.559   Value=0x00000000
T26A4 000:375.582 - 0.047ms returns 0
T26A4 000:375.595 JLINK_GetDebugInfo(0x103 = JLINKARM_DEBUG_INFO_TPIU_ADDR_INDEX)
T26A4 000:375.607   Value=0xE0040000
T26A4 000:375.621 - 0.031ms returns 0
T26A4 000:375.633 JLINK_GetDebugInfo(0x104 = JLINKARM_DEBUG_INFO_ITM_ADDR_INDEX)
T26A4 000:375.645   Value=0xE0000000
T26A4 000:375.659 - 0.030ms returns 0
T26A4 000:375.671 JLINK_GetDebugInfo(0x105 = JLINKARM_DEBUG_INFO_DWT_ADDR_INDEX)
T26A4 000:375.682   Value=0xE0001000
T26A4 000:375.697 - 0.031ms returns 0
T26A4 000:375.708 JLINK_GetDebugInfo(0x106 = JLINKARM_DEBUG_INFO_FPB_ADDR_INDEX)
T26A4 000:375.719   Value=0xE0002000
T26A4 000:375.733 - 0.029ms returns 0
T26A4 000:375.745 JLINK_GetDebugInfo(0x107 = JLINKARM_DEBUG_INFO_NVIC_ADDR_INDEX)
T26A4 000:375.756   Value=0xE000E000
T26A4 000:375.770 - 0.030ms returns 0
T26A4 000:375.782 JLINK_GetDebugInfo(0x10C = JLINKARM_DEBUG_INFO_DBG_ADDR_INDEX)
T26A4 000:375.792   Value=0xE000EDF0
T26A4 000:375.807 - 0.030ms returns 0
T26A4 000:375.818 JLINK_GetDebugInfo(0x01 = Unknown)
T26A4 000:375.835   Value=0x00000001
T26A4 000:375.850 - 0.036ms returns 0
T26A4 000:375.862 JLINK_ReadMemU32(0xE000ED00, 0x1 Items)
T26A4 000:375.884   CPU_ReadMem(4 bytes @ 0xE000ED00)
T26A4 000:376.978   Data:  41 C2 0F 41
T26A4 000:377.012   Debug reg: CPUID
T26A4 000:377.027 - 1.170ms returns 1 (0x1)
T26A4 000:377.043 JLINK_GetDebugInfo(0x10F = JLINKARM_DEBUG_INFO_HAS_CORTEX_M_SECURITY_EXT_INDEX)
T26A4 000:377.055   Value=0x00000000
T26A4 000:377.070 - 0.032ms returns 0
T26A4 000:377.082 JLINK_HasError()
T26A4 000:377.095 JLINK_SetResetType(JLINKARM_CM3_RESET_TYPE_NORMAL)
T26A4 000:377.107 - 0.016ms returns JLINKARM_CM3_RESET_TYPE_NORMAL
T26A4 000:377.119 JLINK_Reset()
T26A4 000:377.151   CPU is running
T26A4 000:377.171   CPU_WriteMem(4 bytes @ 0xE000EDF0)
T26A4 000:378.103   CPU is running
T26A4 000:378.139   CPU_WriteMem(4 bytes @ 0xE000EDFC)
T26A4 000:382.799   Reset: Halt core after reset via DEMCR.VC_CORERESET.
T26A4 000:388.226   Reset: Reset device via AIRCR.SYSRESETREQ.
T26A4 000:388.261   CPU is running
T26A4 000:388.280   CPU_WriteMem(4 bytes @ 0xE000ED0C)
T26A4 000:444.610   CPU_ReadMem(4 bytes @ 0xE000EDF0)
T26A4 000:445.334   CPU_ReadMem(4 bytes @ 0xE000EDF0)
T26A4 000:449.518   CPU_WriteMem(4 bytes @ 0xE000EDFC)
T26A4 000:456.005   CPU_ReadMem(4 bytes @ 0xE000EDF0)
T26A4 000:460.798   CPU_WriteMem(4 bytes @ 0xE0002000)
T26A4 000:461.900   CPU_ReadMem(4 bytes @ 0xE000EDFC)
T26A4 000:463.027   CPU_ReadMem(4 bytes @ 0xE0001000)
T26A4 000:464.018 - 86.922ms
T26A4 000:464.064 JLINK_Halt()
T26A4 000:464.076 - 0.018ms returns 0x00
T26A4 000:464.090 JLINK_ReadMemU32(0xE000EDF0, 0x1 Items)
T26A4 000:464.113   CPU_ReadMem(4 bytes @ 0xE000EDF0)
T26A4 000:465.004   Data:  03 00 03 00
T26A4 000:465.038   Debug reg: DHCSR
T26A4 000:465.053 - 0.969ms returns 1 (0x1)
T26A4 000:465.077 JLINK_WriteU32_64(0xE000EDF0, 0xA05F0003)
T26A4 000:465.091   Debug reg: DHCSR
T26A4 000:465.559   CPU_WriteMem(4 bytes @ 0xE000EDF0)
T26A4 000:466.474 - 1.420ms returns 0 (0x00000000)
T26A4 000:466.516 JLINK_WriteU32_64(0xE000EDFC, 0x01000000)
T26A4 000:466.530   Debug reg: DEMCR
T26A4 000:466.558   CPU_WriteMem(4 bytes @ 0xE000EDFC)
T26A4 000:467.353 - 0.859ms returns 0 (0x00000000)
T26A4 000:481.940 JLINK_GetHWStatus(...)
T26A4 000:482.858 - 0.938ms returns 0
T26A4 000:496.432 JLINK_GetNumBPUnits(Type = 0xFFFFFF00)
T26A4 000:496.462 - 0.036ms returns 0x06
T26A4 000:496.477 JLINK_GetNumBPUnits(Type = 0xF0)
T26A4 000:496.488 - 0.016ms returns 0x2000
T26A4 000:496.500 JLINK_GetNumWPUnits()
T26A4 000:496.511 - 0.016ms returns 4
T26A4 000:509.201 JLINK_GetSpeed()
T26A4 000:509.225 - 0.029ms returns 4000
T26A4 000:519.340 JLINK_ReadMemU32(0xE000E004, 0x1 Items)
T26A4 000:519.424   CPU_ReadMem(4 bytes @ 0xE000E004)
T26A4 000:520.511   Data:  02 00 00 00
T26A4 000:520.538 - 1.204ms returns 1 (0x1)
T26A4 000:520.554 JLINK_ReadMemU32(0xE000E004, 0x1 Items)
T26A4 000:520.576   CPU_ReadMem(4 bytes @ 0xE000E004)
T26A4 000:521.491   Data:  02 00 00 00
T26A4 000:521.528 - 0.979ms returns 1 (0x1)
T26A4 000:521.543 JLINK_WriteMemEx(0xE0001000, 0x0000001C Bytes, Flags = 0x02000004)
T26A4 000:521.556   Data:  01 00 00 00 00 00 00 00 00 00 00 00 00 00 00 00 ...
T26A4 000:521.584   CPU_WriteMem(28 bytes @ 0xE0001000)
T26A4 000:522.606 - 1.090ms returns 0x1C
T26A4 000:522.648 JLINK_Halt()
T26A4 000:522.659 - 0.016ms returns 0x00
T26A4 000:522.671 JLINK_IsHalted()
T26A4 000:522.683 - 0.016ms returns TRUE
T26A4 000:529.921 JLINK_WriteMem(0x20000000, 0x180 Bytes, ...)
T26A4 000:529.960   Data:  00 BE 0A E0 0D 78 2D 06 68 40 08 24 40 00 00 D3 ...
T26A4 000:530.710   CPU_WriteMem(384 bytes @ 0x20000000)
T26A4 000:534.232 - 4.334ms returns 0x180
T26A4 000:534.310 JLINK_HasError()
T26A4 000:534.327 JLINK_WriteReg(R0, 0x08000000)
T26A4 000:534.345 - 0.023ms returns 0
T26A4 000:534.358 JLINK_WriteReg(R1, 0x017D7840)
T26A4 000:534.370 - 0.017ms returns 0
T26A4 000:534.383 JLINK_WriteReg(R2, 0x00000001)
T26A4 000:534.394 - 0.017ms returns 0
T26A4 000:534.407 JLINK_WriteReg(R3, 0x00000000)
T26A4 000:534.418 - 0.017ms returns 0
T26A4 000:534.431 JLINK_WriteReg(R4, 0x00000000)
T26A4 000:534.442 - 0.017ms returns 0
T26A4 000:534.454 JLINK_WriteReg(R5, 0x00000000)
T26A4 000:534.466 - 0.017ms returns 0
T26A4 000:534.478 JLINK_WriteReg(R6, 0x00000000)
T26A4 000:534.490 - 0.017ms returns 0
T26A4 000:534.502 JLINK_WriteReg(R7, 0x00000000)
T26A4 000:534.514 - 0.017ms returns 0
T26A4 000:534.526 JLINK_WriteReg(R8, 0x00000000)
T26A4 000:534.549 - 0.029ms returns 0
T26A4 000:534.562 JLINK_WriteReg(R9, 0x2000017C)
T26A4 000:534.574 - 0.017ms returns 0
T26A4 000:534.587 JLINK_WriteReg(R10, 0x00000000)
T26A4 000:534.599 - 0.017ms returns 0
T26A4 000:534.611 JLINK_WriteReg(R11, 0x00000000)
T26A4 000:534.623 - 0.017ms returns 0
T26A4 000:534.635 JLINK_WriteReg(R12, 0x00000000)
T26A4 000:534.647 - 0.017ms returns 0
T26A4 000:534.659 JLINK_WriteReg(R13 (SP), 0x20001000)
T26A4 000:534.672 - 0.018ms returns 0
T26A4 000:534.685 JLINK_WriteReg(R14, 0x20000001)
T26A4 000:534.697 - 0.017ms returns 0
T26A4 000:534.709 JLINK_WriteReg(R15 (PC), 0x20000054)
T26A4 000:534.727 - 0.023ms returns 0
T26A4 000:534.739 JLINK_WriteReg(XPSR, 0x01000000)
T26A4 000:534.751 - 0.017ms returns 0
T26A4 000:534.763 JLINK_WriteReg(MSP, 0x20001000)
T26A4 000:534.775 - 0.017ms returns 0
T26A4 000:534.787 JLINK_WriteReg(PSP, 0x20001000)
T26A4 000:534.799 - 0.023ms returns 0
T26A4 000:534.818 JLINK_WriteReg(CFBP, 0x00000000)
T26A4 000:534.830 - 0.017ms returns 0
T26A4 000:534.843 JLINK_SetBPEx(Addr = 0x20000000, Type = 0xFFFFFFF2)
T26A4 000:534.869   CPU_ReadMem(2 bytes @ 0x20000000)
T26A4 000:535.868 - 1.037ms returns 0x00000001
T26A4 000:535.890 JLINK_Go()
T26A4 000:536.021   CPU_WriteMem(2 bytes @ 0x20000000)
T26A4 000:537.309   CPU_ReadMem(4 bytes @ 0xE0001000)
T26A4 000:538.477   CPU_WriteMem(4 bytes @ 0xE0002008)
T26A4 000:538.503   CPU_WriteMem(4 bytes @ 0xE000200C)
T26A4 000:538.519   CPU_WriteMem(4 bytes @ 0xE0002010)
T26A4 000:538.534   CPU_WriteMem(4 bytes @ 0xE0002014)
T26A4 000:538.550   CPU_WriteMem(4 bytes @ 0xE0002018)
T26A4 000:538.571   CPU_WriteMem(4 bytes @ 0xE000201C)
T26A4 000:540.980   CPU_WriteMem(4 bytes @ 0xE0001004)
T26A4 000:545.221 - 9.342ms
T26A4 000:545.249 JLINK_IsHalted()
T26A4 000:548.659   CPU_ReadMem(2 bytes @ 0x20000000)
T26A4 000:549.770 - 4.544ms returns TRUE
T26A4 000:549.812 JLINK_ReadReg(R15 (PC))
T26A4 000:549.830 - 0.023ms returns 0x20000000
T26A4 000:549.844 JLINK_ClrBPEx(BPHandle = 0x00000001)
T26A4 000:549.857 - 0.018ms returns 0x00
T26A4 000:549.874 JLINK_ReadReg(R0)
T26A4 000:549.887 - 0.023ms returns 0x00000000
T26A4 000:550.430 JLINK_HasError()
T26A4 000:550.454 JLINK_WriteReg(R0, 0x08010000)
T26A4 000:550.470 - 0.021ms returns 0
T26A4 000:550.483 JLINK_WriteReg(R1, 0x00010000)
T26A4 000:550.495 - 0.017ms returns 0
T26A4 000:550.507 JLINK_WriteReg(R2, 0x000000FF)
T26A4 000:550.519 - 0.017ms returns 0
T26A4 000:550.532 JLINK_WriteReg(R3, 0x00000000)
T26A4 000:550.544 - 0.017ms returns 0
T26A4 000:550.563 JLINK_WriteReg(R4, 0x00000000)
T26A4 000:550.577 - 0.019ms returns 0
T26A4 000:550.590 JLINK_WriteReg(R5, 0x00000000)
T26A4 000:550.601 - 0.017ms returns 0
T26A4 000:550.614 JLINK_WriteReg(R6, 0x00000000)
T26A4 000:550.626 - 0.017ms returns 0
T26A4 000:550.638 JLINK_WriteReg(R7, 0x00000000)
T26A4 000:550.650 - 0.017ms returns 0
T26A4 000:550.662 JLINK_WriteReg(R8, 0x00000000)
T26A4 000:550.674 - 0.017ms returns 0
T26A4 000:550.686 JLINK_WriteReg(R9, 0x2000017C)
T26A4 000:550.698 - 0.017ms returns 0
T26A4 000:550.710 JLINK_WriteReg(R10, 0x00000000)
T26A4 000:550.722 - 0.017ms returns 0
T26A4 000:550.735 JLINK_WriteReg(R11, 0x00000000)
T26A4 000:550.746 - 0.017ms returns 0
T26A4 000:550.759 JLINK_WriteReg(R12, 0x00000000)
T26A4 000:550.771 - 0.017ms returns 0
T26A4 000:550.783 JLINK_WriteReg(R13 (SP), 0x20001000)
T26A4 000:550.795 - 0.017ms returns 0
T26A4 000:550.808 JLINK_WriteReg(R14, 0x20000001)
T26A4 000:550.820 - 0.017ms returns 0
T26A4 000:550.832 JLINK_WriteReg(R15 (PC), 0x20000020)
T26A4 000:550.844 - 0.017ms returns 0
T26A4 000:550.857 JLINK_WriteReg(XPSR, 0x01000000)
T26A4 000:550.869 - 0.017ms returns 0
T26A4 000:550.882 JLINK_WriteReg(MSP, 0x20001000)
T26A4 000:550.893 - 0.017ms returns 0
T26A4 000:550.906 JLINK_WriteReg(PSP, 0x20001000)
T26A4 000:550.917 - 0.017ms returns 0
T26A4 000:550.930 JLINK_WriteReg(CFBP, 0x00000000)
T26A4 000:550.941 - 0.017ms returns 0
T26A4 000:550.954 JLINK_SetBPEx(Addr = 0x20000000, Type = 0xFFFFFFF2)
T26A4 000:550.967 - 0.019ms returns 0x00000002
T26A4 000:550.980 JLINK_Go()
T26A4 000:551.004   CPU_ReadMem(4 bytes @ 0xE0001000)
T26A4 000:555.127 - 4.170ms
T26A4 000:555.162 JLINK_IsHalted()
T26A4 000:555.878 - 0.738ms returns FALSE
T26A4 000:555.912 JLINK_HasError()
T26A4 000:592.261 JLINK_IsHalted()
T26A4 000:593.643 - 1.426ms returns FALSE
T26A4 000:593.711 JLINK_HasError()
T26A4 000:595.285 JLINK_IsHalted()
T26A4 000:596.507 - 1.259ms returns FALSE
T26A4 000:596.544 JLINK_HasError()
T26A4 000:597.816 JLINK_IsHalted()
T26A4 000:599.028 - 1.265ms returns FALSE
T26A4 000:599.093 JLINK_HasError()
T26A4 000:600.772 JLINK_IsHalted()
T26A4 000:601.867 - 1.109ms returns FALSE
T26A4 000:601.898 JLINK_HasError()
T26A4 000:603.916 JLINK_IsHalted()
T26A4 000:605.093 - 1.190ms returns FALSE
T26A4 000:605.116 JLINK_HasError()
T26A4 000:606.901 JLINK_IsHalted()
T26A4 000:608.099 - 1.213ms returns FALSE
T26A4 000:608.125 JLINK_HasError()
T26A4 000:609.865 JLINK_IsHalted()
T26A4 000:610.990 - 1.137ms returns FALSE
T26A4 000:611.013 JLINK_HasError()
T26A4 000:614.885 JLINK_IsHalted()
T26A4 000:618.538   CPU_ReadMem(2 bytes @ 0x20000000)
T26A4 000:619.663 - 4.800ms returns TRUE
T26A4 000:619.698 JLINK_ReadReg(R15 (PC))
T26A4 000:619.729 - 0.037ms returns 0x20000000
T26A4 000:619.743 JLINK_ClrBPEx(BPHandle = 0x00000002)
T26A4 000:619.756 - 0.019ms returns 0x00
T26A4 000:619.770 JLINK_ReadReg(R0)
T26A4 000:619.782 - 0.018ms returns 0x00000000
T26A4 000:620.775 JLINK_HasError()
T26A4 000:620.800 JLINK_WriteReg(R0, 0x08020000)
T26A4 000:620.816 - 0.022ms returns 0
T26A4 000:620.829 JLINK_WriteReg(R1, 0x00020000)
T26A4 000:620.841 - 0.017ms returns 0
T26A4 000:620.854 JLINK_WriteReg(R2, 0x000000FF)
T26A4 000:620.866 - 0.017ms returns 0
T26A4 000:620.878 JLINK_WriteReg(R3, 0x00000000)
T26A4 000:620.890 - 0.017ms returns 0
T26A4 000:620.902 JLINK_WriteReg(R4, 0x00000000)
T26A4 000:620.914 - 0.017ms returns 0
T26A4 000:620.926 JLINK_WriteReg(R5, 0x00000000)
T26A4 000:620.938 - 0.017ms returns 0
T26A4 000:620.950 JLINK_WriteReg(R6, 0x00000000)
T26A4 000:620.962 - 0.017ms returns 0
T26A4 000:620.975 JLINK_WriteReg(R7, 0x00000000)
T26A4 000:620.986 - 0.017ms returns 0
T26A4 000:620.999 JLINK_WriteReg(R8, 0x00000000)
T26A4 000:621.011 - 0.017ms returns 0
T26A4 000:621.023 JLINK_WriteReg(R9, 0x2000017C)
T26A4 000:621.035 - 0.017ms returns 0
T26A4 000:621.047 JLINK_WriteReg(R10, 0x00000000)
T26A4 000:621.059 - 0.017ms returns 0
T26A4 000:621.071 JLINK_WriteReg(R11, 0x00000000)
T26A4 000:621.083 - 0.017ms returns 0
T26A4 000:621.096 JLINK_WriteReg(R12, 0x00000000)
T26A4 000:621.108 - 0.017ms returns 0
T26A4 000:621.120 JLINK_WriteReg(R13 (SP), 0x20001000)
T26A4 000:621.132 - 0.018ms returns 0
T26A4 000:621.145 JLINK_WriteReg(R14, 0x20000001)
T26A4 000:621.156 - 0.016ms returns 0
T26A4 000:621.169 JLINK_WriteReg(R15 (PC), 0x20000020)
T26A4 000:621.180 - 0.017ms returns 0
T26A4 000:621.193 JLINK_WriteReg(XPSR, 0x01000000)
T26A4 000:621.205 - 0.017ms returns 0
T26A4 000:621.217 JLINK_WriteReg(MSP, 0x20001000)
T26A4 000:621.229 - 0.017ms returns 0
T26A4 000:621.241 JLINK_WriteReg(PSP, 0x20001000)
T26A4 000:621.252 - 0.017ms returns 0
T26A4 000:621.265 JLINK_WriteReg(CFBP, 0x00000000)
T26A4 000:621.276 - 0.017ms returns 0
T26A4 000:621.289 JLINK_SetBPEx(Addr = 0x20000000, Type = 0xFFFFFFF2)
T26A4 000:621.302 - 0.019ms returns 0x00000003
T26A4 000:621.315 JLINK_Go()
T26A4 000:621.343   CPU_ReadMem(4 bytes @ 0xE0001000)
T26A4 000:625.571 - 4.277ms
T26A4 000:625.605 JLINK_IsHalted()
T26A4 000:626.468 - 0.875ms returns FALSE
T26A4 000:626.490 JLINK_HasError()
T26A4 000:629.693 JLINK_IsHalted()
T26A4 000:630.470 - 0.789ms returns FALSE
T26A4 000:630.492 JLINK_HasError()
T26A4 000:631.666 JLINK_IsHalted()
T26A4 000:632.603 - 0.952ms returns FALSE
T26A4 000:632.628 JLINK_HasError()
T26A4 000:634.665 JLINK_IsHalted()
T26A4 000:635.470 - 0.817ms returns FALSE
T26A4 000:635.492 JLINK_HasError()
T26A4 000:636.665 JLINK_IsHalted()
T26A4 000:637.722 - 1.070ms returns FALSE
T26A4 000:637.744 JLINK_HasError()
T26A4 000:639.130 JLINK_IsHalted()
T26A4 000:640.164 - 1.057ms returns FALSE
T26A4 000:640.201 JLINK_HasError()
T26A4 000:646.141 JLINK_IsHalted()
T26A4 000:647.306 - 1.188ms returns FALSE
T26A4 000:647.341 JLINK_HasError()
T26A4 000:648.824 JLINK_IsHalted()
T26A4 000:649.866 - 1.065ms returns FALSE
T26A4 000:649.901 JLINK_HasError()
T26A4 000:651.810 JLINK_IsHalted()
T26A4 000:652.629 - 0.842ms returns FALSE
T26A4 000:652.664 JLINK_HasError()
T26A4 000:653.806 JLINK_IsHalted()
T26A4 000:654.629 - 0.846ms returns FALSE
T26A4 000:654.663 JLINK_HasError()
T26A4 000:655.815 JLINK_IsHalted()
T26A4 000:656.851 - 1.058ms returns FALSE
T26A4 000:656.885 JLINK_HasError()
T26A4 000:658.763 JLINK_IsHalted()
T26A4 000:659.855 - 1.115ms returns FALSE
T26A4 000:659.890 JLINK_HasError()
T26A4 000:662.821 JLINK_IsHalted()
T26A4 000:663.883 - 1.084ms returns FALSE
T26A4 000:663.917 JLINK_HasError()
T26A4 000:665.510 JLINK_IsHalted()
T26A4 000:666.628 - 1.140ms returns FALSE
T26A4 000:666.662 JLINK_HasError()
T26A4 000:668.479 JLINK_IsHalted()
T26A4 000:669.505 - 1.048ms returns FALSE
T26A4 000:669.539 JLINK_HasError()
T26A4 000:671.477 JLINK_IsHalted()
T26A4 000:672.357 - 0.909ms returns FALSE
T26A4 000:672.398 JLINK_HasError()
T26A4 000:674.481 JLINK_IsHalted()
T26A4 000:675.373 - 0.915ms returns FALSE
T26A4 000:675.412 JLINK_HasError()
T26A4 000:677.454 JLINK_IsHalted()
T26A4 000:678.206 - 0.765ms returns FALSE
T26A4 000:678.229 JLINK_HasError()
T26A4 000:679.445 JLINK_IsHalted()
T26A4 000:680.353 - 0.920ms returns FALSE
T26A4 000:680.374 JLINK_HasError()
T26A4 000:682.013 JLINK_IsHalted()
T26A4 000:682.855 - 0.855ms returns FALSE
T26A4 000:682.877 JLINK_HasError()
T26A4 000:683.977 JLINK_IsHalted()
T26A4 000:684.728 - 0.763ms returns FALSE
T26A4 000:684.749 JLINK_HasError()
T26A4 000:686.331 JLINK_IsHalted()
T26A4 000:687.217 - 0.898ms returns FALSE
T26A4 000:687.238 JLINK_HasError()
T26A4 000:688.338 JLINK_IsHalted()
T26A4 000:689.245 - 0.919ms returns FALSE
T26A4 000:689.266 JLINK_HasError()
T26A4 000:691.339 JLINK_IsHalted()
T26A4 000:692.221 - 0.894ms returns FALSE
T26A4 000:692.242 JLINK_HasError()
T26A4 000:695.337 JLINK_IsHalted()
T26A4 000:696.252 - 0.938ms returns FALSE
T26A4 000:696.286 JLINK_HasError()
T26A4 000:698.366 JLINK_IsHalted()
T26A4 000:699.388 - 1.044ms returns FALSE
T26A4 000:699.422 JLINK_HasError()
T26A4 000:701.383 JLINK_IsHalted()
T26A4 000:702.495 - 1.135ms returns FALSE
T26A4 000:702.529 JLINK_HasError()
T26A4 000:704.394 JLINK_IsHalted()
T26A4 000:705.469 - 1.088ms returns FALSE
T26A4 000:705.498 JLINK_HasError()
T26A4 000:707.232 JLINK_IsHalted()
T26A4 000:708.150 - 0.973ms returns FALSE
T26A4 000:708.218 JLINK_HasError()
T26A4 000:710.261 JLINK_IsHalted()
T26A4 000:711.353 - 1.115ms returns FALSE
T26A4 000:711.388 JLINK_HasError()
T26A4 000:713.256 JLINK_IsHalted()
T26A4 000:714.352 - 1.119ms returns FALSE
T26A4 000:714.386 JLINK_HasError()
T26A4 000:716.253 JLINK_IsHalted()
T26A4 000:717.374 - 1.143ms returns FALSE
T26A4 000:717.408 JLINK_HasError()
T26A4 000:719.266 JLINK_IsHalted()
T26A4 000:720.376 - 1.133ms returns FALSE
T26A4 000:720.410 JLINK_HasError()
T26A4 000:722.276 JLINK_IsHalted()
T26A4 000:723.378 - 1.124ms returns FALSE
T26A4 000:723.412 JLINK_HasError()
T26A4 000:724.884 JLINK_IsHalted()
T26A4 000:725.999 - 1.137ms returns FALSE
T26A4 000:726.033 JLINK_HasError()
T26A4 000:727.881 JLINK_IsHalted()
T26A4 000:729.025 - 1.166ms returns FALSE
T26A4 000:729.059 JLINK_HasError()
T26A4 000:730.879 JLINK_IsHalted()
T26A4 000:732.001 - 1.145ms returns FALSE
T26A4 000:732.043 JLINK_HasError()
T26A4 000:733.885 JLINK_IsHalted()
T26A4 000:734.985 - 1.123ms returns FALSE
T26A4 000:735.020 JLINK_HasError()
T26A4 000:736.877 JLINK_IsHalted()
T26A4 000:738.003 - 1.148ms returns FALSE
T26A4 000:738.037 JLINK_HasError()
T26A4 000:739.893 JLINK_IsHalted()
T26A4 000:743.281   CPU_ReadMem(2 bytes @ 0x20000000)
T26A4 000:744.380 - 4.509ms returns TRUE
T26A4 000:744.414 JLINK_ReadReg(R15 (PC))
T26A4 000:744.436 - 0.029ms returns 0x20000000
T26A4 000:744.452 JLINK_ClrBPEx(BPHandle = 0x00000003)
T26A4 000:744.465 - 0.019ms returns 0x00
T26A4 000:744.478 JLINK_ReadReg(R0)
T26A4 000:744.490 - 0.017ms returns 0x00000000
T26A4 000:773.895 JLINK_HasError()
T26A4 000:773.941 JLINK_WriteReg(R0, 0x00000001)
T26A4 000:773.964 - 0.029ms returns 0
T26A4 000:773.978 JLINK_WriteReg(R1, 0x00020000)
T26A4 000:773.990 - 0.018ms returns 0
T26A4 000:774.003 JLINK_WriteReg(R2, 0x000000FF)
T26A4 000:774.014 - 0.017ms returns 0
T26A4 000:774.027 JLINK_WriteReg(R3, 0x00000000)
T26A4 000:774.038 - 0.017ms returns 0
T26A4 000:774.051 JLINK_WriteReg(R4, 0x00000000)
T26A4 000:774.062 - 0.017ms returns 0
T26A4 000:774.075 JLINK_WriteReg(R5, 0x00000000)
T26A4 000:774.087 - 0.017ms returns 0
T26A4 000:774.100 JLINK_WriteReg(R6, 0x00000000)
T26A4 000:774.111 - 0.017ms returns 0
T26A4 000:774.124 JLINK_WriteReg(R7, 0x00000000)
T26A4 000:774.135 - 0.017ms returns 0
T26A4 000:774.148 JLINK_WriteReg(R8, 0x00000000)
T26A4 000:774.160 - 0.017ms returns 0
T26A4 000:774.172 JLINK_WriteReg(R9, 0x2000017C)
T26A4 000:774.184 - 0.017ms returns 0
T26A4 000:774.196 JLINK_WriteReg(R10, 0x00000000)
T26A4 000:774.218 - 0.033ms returns 0
T26A4 000:774.237 JLINK_WriteReg(R11, 0x00000000)
T26A4 000:774.250 - 0.018ms returns 0
T26A4 000:774.262 JLINK_WriteReg(R12, 0x00000000)
T26A4 000:774.274 - 0.017ms returns 0
T26A4 000:774.286 JLINK_WriteReg(R13 (SP), 0x20001000)
T26A4 000:774.299 - 0.018ms returns 0
T26A4 000:774.312 JLINK_WriteReg(R14, 0x20000001)
T26A4 000:774.323 - 0.017ms returns 0
T26A4 000:774.336 JLINK_WriteReg(R15 (PC), 0x20000082)
T26A4 000:774.348 - 0.017ms returns 0
T26A4 000:774.360 JLINK_WriteReg(XPSR, 0x01000000)
T26A4 000:774.372 - 0.017ms returns 0
T26A4 000:774.384 JLINK_WriteReg(MSP, 0x20001000)
T26A4 000:774.396 - 0.017ms returns 0
T26A4 000:774.408 JLINK_WriteReg(PSP, 0x20001000)
T26A4 000:774.420 - 0.017ms returns 0
T26A4 000:774.433 JLINK_WriteReg(CFBP, 0x00000000)
T26A4 000:774.451 - 0.024ms returns 0
T26A4 000:774.465 JLINK_SetBPEx(Addr = 0x20000000, Type = 0xFFFFFFF2)
T26A4 000:774.480 - 0.021ms returns 0x00000004
T26A4 000:774.493 JLINK_Go()
T26A4 000:774.527   CPU_ReadMem(4 bytes @ 0xE0001000)
T26A4 000:780.223 - 5.752ms
T26A4 000:780.257 JLINK_IsHalted()
T26A4 000:784.025   CPU_ReadMem(2 bytes @ 0x20000000)
T26A4 000:785.106 - 4.876ms returns TRUE
T26A4 000:785.151 JLINK_ReadReg(R15 (PC))
T26A4 000:785.167 - 0.023ms returns 0x20000000
T26A4 000:785.182 JLINK_ClrBPEx(BPHandle = 0x00000004)
T26A4 000:785.195 - 0.019ms returns 0x00
T26A4 000:785.212 JLINK_ReadReg(R0)
T26A4 000:785.226 - 0.019ms returns 0x00000000
T26A4 000:857.191 JLINK_WriteMem(0x20000000, 0x180 Bytes, ...)
T26A4 000:857.235   Data:  00 BE 0A E0 0D 78 2D 06 68 40 08 24 40 00 00 D3 ...
T26A4 000:857.295   CPU_WriteMem(384 bytes @ 0x20000000)
T26A4 000:860.878 - 3.732ms returns 0x180
T26A4 000:861.193 JLINK_HasError()
T26A4 000:861.257 JLINK_WriteReg(R0, 0x08000000)
T26A4 000:861.292 - 0.046ms returns 0
T26A4 000:861.318 JLINK_WriteReg(R1, 0x017D7840)
T26A4 000:861.341 - 0.034ms returns 0
T26A4 000:861.366 JLINK_WriteReg(R2, 0x00000002)
T26A4 000:861.389 - 0.033ms returns 0
T26A4 000:861.413 JLINK_WriteReg(R3, 0x00000000)
T26A4 000:861.435 - 0.033ms returns 0
T26A4 000:861.554 JLINK_WriteReg(R4, 0x00000000)
T26A4 000:861.596 - 0.049ms returns 0
T26A4 000:861.610 JLINK_WriteReg(R5, 0x00000000)
T26A4 000:861.622 - 0.017ms returns 0
T26A4 000:861.634 JLINK_WriteReg(R6, 0x00000000)
T26A4 000:861.646 - 0.017ms returns 0
T26A4 000:861.658 JLINK_WriteReg(R7, 0x00000000)
T26A4 000:861.670 - 0.017ms returns 0
T26A4 000:861.683 JLINK_WriteReg(R8, 0x00000000)
T26A4 000:861.694 - 0.017ms returns 0
T26A4 000:861.707 JLINK_WriteReg(R9, 0x2000017C)
T26A4 000:861.718 - 0.017ms returns 0
T26A4 000:861.731 JLINK_WriteReg(R10, 0x00000000)
T26A4 000:861.743 - 0.017ms returns 0
T26A4 000:861.755 JLINK_WriteReg(R11, 0x00000000)
T26A4 000:861.767 - 0.017ms returns 0
T26A4 000:861.779 JLINK_WriteReg(R12, 0x00000000)
T26A4 000:861.791 - 0.017ms returns 0
T26A4 000:861.803 JLINK_WriteReg(R13 (SP), 0x20001000)
T26A4 000:861.816 - 0.018ms returns 0
T26A4 000:861.829 JLINK_WriteReg(R14, 0x20000001)
T26A4 000:861.841 - 0.017ms returns 0
T26A4 000:861.854 JLINK_WriteReg(R15 (PC), 0x20000054)
T26A4 000:861.866 - 0.017ms returns 0
T26A4 000:861.878 JLINK_WriteReg(XPSR, 0x01000000)
T26A4 000:861.890 - 0.017ms returns 0
T26A4 000:861.903 JLINK_WriteReg(MSP, 0x20001000)
T26A4 000:861.914 - 0.017ms returns 0
T26A4 000:861.927 JLINK_WriteReg(PSP, 0x20001000)
T26A4 000:861.938 - 0.017ms returns 0
T26A4 000:861.951 JLINK_WriteReg(CFBP, 0x00000000)
T26A4 000:861.962 - 0.017ms returns 0
T26A4 000:861.975 JLINK_SetBPEx(Addr = 0x20000000, Type = 0xFFFFFFF2)
T26A4 000:861.997   CPU_ReadMem(2 bytes @ 0x20000000)
T26A4 000:863.513 - 1.568ms returns 0x00000005
T26A4 000:863.554 JLINK_Go()
T26A4 000:863.573   CPU_WriteMem(2 bytes @ 0x20000000)
T26A4 000:865.175   CPU_ReadMem(4 bytes @ 0xE0001000)
T26A4 000:869.663 - 6.131ms
T26A4 000:869.698 JLINK_IsHalted()
T26A4 000:873.323   CPU_ReadMem(2 bytes @ 0x20000000)
T26A4 000:874.422 - 4.748ms returns TRUE
T26A4 000:874.458 JLINK_ReadReg(R15 (PC))
T26A4 000:874.575 - 0.131ms returns 0x20000000
T26A4 000:874.598 JLINK_ClrBPEx(BPHandle = 0x00000005)
T26A4 000:874.612 - 0.019ms returns 0x00
T26A4 000:874.625 JLINK_ReadReg(R0)
T26A4 000:874.637 - 0.018ms returns 0x00000000
T26A4 000:875.152 JLINK_WriteMem(0x20000180, 0x280 Bytes, ...)
T26A4 000:875.175   Data:  98 12 02 20 79 02 01 08 71 6E 01 08 69 55 01 08 ...
T26A4 000:875.206   CPU_WriteMem(640 bytes @ 0x20000180)
T26A4 000:880.038 - 4.909ms returns 0x280
T26A4 000:880.073 JLINK_WriteMem(0x20000400, 0x180 Bytes, ...)
T26A4 000:880.086   Data:  FE E7 FE E7 FE E7 FE E7 FE E7 FE E7 FE E7 FE E7 ...
T26A4 000:880.116   CPU_WriteMem(384 bytes @ 0x20000400)
T26A4 000:883.573 - 3.522ms returns 0x180
T26A4 000:883.607 JLINK_HasError()
T26A4 000:883.621 JLINK_WriteReg(R0, 0x08010000)
T26A4 000:883.637 - 0.022ms returns 0
T26A4 000:883.650 JLINK_WriteReg(R1, 0x00000400)
T26A4 000:883.663 - 0.017ms returns 0
T26A4 000:883.675 JLINK_WriteReg(R2, 0x20000180)
T26A4 000:883.687 - 0.017ms returns 0
T26A4 000:883.699 JLINK_WriteReg(R3, 0x00000000)
T26A4 000:883.711 - 0.017ms returns 0
T26A4 000:883.723 JLINK_WriteReg(R4, 0x00000000)
T26A4 000:883.742 - 0.025ms returns 0
T26A4 000:883.756 JLINK_WriteReg(R5, 0x00000000)
T26A4 000:883.768 - 0.017ms returns 0
T26A4 000:883.780 JLINK_WriteReg(R6, 0x00000000)
T26A4 000:883.792 - 0.018ms returns 0
T26A4 000:883.805 JLINK_WriteReg(R7, 0x00000000)
T26A4 000:883.817 - 0.017ms returns 0
T26A4 000:883.830 JLINK_WriteReg(R8, 0x00000000)
T26A4 000:883.841 - 0.017ms returns 0
T26A4 000:883.854 JLINK_WriteReg(R9, 0x2000017C)
T26A4 000:883.865 - 0.017ms returns 0
T26A4 000:883.878 JLINK_WriteReg(R10, 0x00000000)
T26A4 000:883.890 - 0.017ms returns 0
T26A4 000:883.902 JLINK_WriteReg(R11, 0x00000000)
T26A4 000:883.914 - 0.017ms returns 0
T26A4 000:883.927 JLINK_WriteReg(R12, 0x00000000)
T26A4 000:883.938 - 0.017ms returns 0
T26A4 000:883.950 JLINK_WriteReg(R13 (SP), 0x20001000)
T26A4 000:883.962 - 0.018ms returns 0
T26A4 000:883.975 JLINK_WriteReg(R14, 0x20000001)
T26A4 000:883.987 - 0.017ms returns 0
T26A4 000:883.999 JLINK_WriteReg(R15 (PC), 0x20000108)
T26A4 000:884.011 - 0.017ms returns 0
T26A4 000:884.023 JLINK_WriteReg(XPSR, 0x01000000)
T26A4 000:884.035 - 0.017ms returns 0
T26A4 000:884.047 JLINK_WriteReg(MSP, 0x20001000)
T26A4 000:884.059 - 0.017ms returns 0
T26A4 000:884.071 JLINK_WriteReg(PSP, 0x20001000)
T26A4 000:884.083 - 0.017ms returns 0
T26A4 000:884.095 JLINK_WriteReg(CFBP, 0x00000000)
T26A4 000:884.107 - 0.017ms returns 0
T26A4 000:884.119 JLINK_SetBPEx(Addr = 0x20000000, Type = 0xFFFFFFF2)
T26A4 000:884.133 - 0.019ms returns 0x00000006
T26A4 000:884.146 JLINK_Go()
T26A4 000:884.170   CPU_ReadMem(4 bytes @ 0xE0001000)
T26A4 000:889.129 - 5.005ms
T26A4 000:889.169 JLINK_IsHalted()
T26A4 000:890.253 - 1.096ms returns FALSE
T26A4 000:890.280 JLINK_HasError()
T26A4 000:895.392 JLINK_IsHalted()
T26A4 000:898.779   CPU_ReadMem(2 bytes @ 0x20000000)
T26A4 000:899.896 - 4.526ms returns TRUE
T26A4 000:899.930 JLINK_ReadReg(R15 (PC))
T26A4 000:899.946 - 0.022ms returns 0x20000000
T26A4 000:899.959 JLINK_ClrBPEx(BPHandle = 0x00000006)
T26A4 000:899.972 - 0.018ms returns 0x00
T26A4 000:899.985 JLINK_ReadReg(R0)
T26A4 000:899.997 - 0.017ms returns 0x00000000
T26A4 000:900.942 JLINK_WriteMem(0x20000180, 0x280 Bytes, ...)
T26A4 000:900.965   Data:  00 20 4F F4 80 11 06 46 84 46 0E E0 17 1B 73 EB ...
T26A4 000:900.993   CPU_WriteMem(640 bytes @ 0x20000180)
T26A4 000:905.780 - 4.860ms returns 0x280
T26A4 000:905.814 JLINK_WriteMem(0x20000400, 0x180 Bytes, ...)
T26A4 000:905.827   Data:  01 21 21 43 08 43 A3 EB 0C 01 CB 1D 4F EA 00 61 ...
T26A4 000:905.854   CPU_WriteMem(384 bytes @ 0x20000400)
T26A4 000:909.256 - 3.464ms returns 0x180
T26A4 000:909.291 JLINK_HasError()
T26A4 000:909.309 JLINK_WriteReg(R0, 0x08010400)
T26A4 000:909.327 - 0.024ms returns 0
T26A4 000:909.340 JLINK_WriteReg(R1, 0x00000400)
T26A4 000:909.352 - 0.017ms returns 0
T26A4 000:909.365 JLINK_WriteReg(R2, 0x20000180)
T26A4 000:909.376 - 0.023ms returns 0
T26A4 000:909.401 JLINK_WriteReg(R3, 0x00000000)
T26A4 000:909.414 - 0.018ms returns 0
T26A4 000:909.426 JLINK_WriteReg(R4, 0x00000000)
T26A4 000:909.438 - 0.017ms returns 0
T26A4 000:909.450 JLINK_WriteReg(R5, 0x00000000)
T26A4 000:909.462 - 0.017ms returns 0
T26A4 000:909.474 JLINK_WriteReg(R6, 0x00000000)
T26A4 000:909.485 - 0.017ms returns 0
T26A4 000:909.498 JLINK_WriteReg(R7, 0x00000000)
T26A4 000:909.509 - 0.017ms returns 0
T26A4 000:909.522 JLINK_WriteReg(R8, 0x00000000)
T26A4 000:909.533 - 0.017ms returns 0
T26A4 000:909.546 JLINK_WriteReg(R9, 0x2000017C)
T26A4 000:909.557 - 0.017ms returns 0
T26A4 000:909.570 JLINK_WriteReg(R10, 0x00000000)
T26A4 000:909.582 - 0.017ms returns 0
T26A4 000:909.594 JLINK_WriteReg(R11, 0x00000000)
T26A4 000:909.606 - 0.017ms returns 0
T26A4 000:909.618 JLINK_WriteReg(R12, 0x00000000)
T26A4 000:909.630 - 0.017ms returns 0
T26A4 000:909.642 JLINK_WriteReg(R13 (SP), 0x20001000)
T26A4 000:909.654 - 0.017ms returns 0
T26A4 000:909.667 JLINK_WriteReg(R14, 0x20000001)
T26A4 000:909.679 - 0.017ms returns 0
T26A4 000:909.691 JLINK_WriteReg(R15 (PC), 0x20000108)
T26A4 000:909.703 - 0.017ms returns 0
T26A4 000:909.715 JLINK_WriteReg(XPSR, 0x01000000)
T26A4 000:909.727 - 0.017ms returns 0
T26A4 000:909.739 JLINK_WriteReg(MSP, 0x20001000)
T26A4 000:909.750 - 0.017ms returns 0
T26A4 000:909.763 JLINK_WriteReg(PSP, 0x20001000)
T26A4 000:909.774 - 0.017ms returns 0
T26A4 000:909.787 JLINK_WriteReg(CFBP, 0x00000000)
T26A4 000:909.798 - 0.017ms returns 0
T26A4 000:909.811 JLINK_SetBPEx(Addr = 0x20000000, Type = 0xFFFFFFF2)
T26A4 000:909.824 - 0.019ms returns 0x00000007
T26A4 000:909.837 JLINK_Go()
T26A4 000:909.861   CPU_ReadMem(4 bytes @ 0xE0001000)
T26A4 000:914.383 - 4.569ms
T26A4 000:914.418 JLINK_IsHalted()
T26A4 000:915.252 - 0.857ms returns FALSE
T26A4 000:915.286 JLINK_HasError()
T26A4 000:917.376 JLINK_IsHalted()
T26A4 000:918.259 - 0.906ms returns FALSE
T26A4 000:918.294 JLINK_HasError()
T26A4 000:920.376 JLINK_IsHalted()
T26A4 000:923.679   CPU_ReadMem(2 bytes @ 0x20000000)
T26A4 000:924.634 - 4.280ms returns TRUE
T26A4 000:924.668 JLINK_ReadReg(R15 (PC))
T26A4 000:924.684 - 0.022ms returns 0x20000000
T26A4 000:924.698 JLINK_ClrBPEx(BPHandle = 0x00000007)
T26A4 000:924.711 - 0.018ms returns 0x00
T26A4 000:924.724 JLINK_ReadReg(R0)
T26A4 000:924.736 - 0.017ms returns 0x00000000
T26A4 000:925.661 JLINK_WriteMem(0x20000180, 0x280 Bytes, ...)
T26A4 000:925.683   Data:  40 D0 00 9A 62 B3 01 9A 01 2A 4F EA 07 52 15 DC ...
T26A4 000:925.710   CPU_WriteMem(640 bytes @ 0x20000180)
T26A4 000:930.511 - 4.874ms returns 0x280
T26A4 000:930.547 JLINK_WriteMem(0x20000400, 0x180 Bytes, ...)
T26A4 000:930.559   Data:  08 43 19 46 70 47 20 2A 06 DB CB 17 20 3A 41 FA ...
T26A4 000:930.587   CPU_WriteMem(384 bytes @ 0x20000400)
T26A4 000:933.760 - 3.236ms returns 0x180
T26A4 000:933.794 JLINK_HasError()
T26A4 000:933.808 JLINK_WriteReg(R0, 0x08010800)
T26A4 000:933.824 - 0.022ms returns 0
T26A4 000:933.837 JLINK_WriteReg(R1, 0x00000400)
T26A4 000:933.849 - 0.017ms returns 0
T26A4 000:933.862 JLINK_WriteReg(R2, 0x20000180)
T26A4 000:933.874 - 0.017ms returns 0
T26A4 000:933.886 JLINK_WriteReg(R3, 0x00000000)
T26A4 000:933.897 - 0.017ms returns 0
T26A4 000:933.910 JLINK_WriteReg(R4, 0x00000000)
T26A4 000:933.922 - 0.024ms returns 0
T26A4 000:933.941 JLINK_WriteReg(R5, 0x00000000)
T26A4 000:933.953 - 0.017ms returns 0
T26A4 000:933.966 JLINK_WriteReg(R6, 0x00000000)
T26A4 000:933.978 - 0.017ms returns 0
T26A4 000:933.991 JLINK_WriteReg(R7, 0x00000000)
T26A4 000:934.003 - 0.017ms returns 0
T26A4 000:934.015 JLINK_WriteReg(R8, 0x00000000)
T26A4 000:934.027 - 0.017ms returns 0
T26A4 000:934.040 JLINK_WriteReg(R9, 0x2000017C)
T26A4 000:934.051 - 0.017ms returns 0
T26A4 000:934.064 JLINK_WriteReg(R10, 0x00000000)
T26A4 000:934.076 - 0.017ms returns 0
T26A4 000:934.088 JLINK_WriteReg(R11, 0x00000000)
T26A4 000:934.100 - 0.017ms returns 0
T26A4 000:934.112 JLINK_WriteReg(R12, 0x00000000)
T26A4 000:934.124 - 0.023ms returns 0
T26A4 000:934.148 JLINK_WriteReg(R13 (SP), 0x20001000)
T26A4 000:934.161 - 0.019ms returns 0
T26A4 000:934.174 JLINK_WriteReg(R14, 0x20000001)
T26A4 000:934.186 - 0.017ms returns 0
T26A4 000:934.198 JLINK_WriteReg(R15 (PC), 0x20000108)
T26A4 000:934.210 - 0.017ms returns 0
T26A4 000:934.223 JLINK_WriteReg(XPSR, 0x01000000)
T26A4 000:934.235 - 0.017ms returns 0
T26A4 000:934.247 JLINK_WriteReg(MSP, 0x20001000)
T26A4 000:934.258 - 0.017ms returns 0
T26A4 000:934.271 JLINK_WriteReg(PSP, 0x20001000)
T26A4 000:934.282 - 0.017ms returns 0
T26A4 000:934.295 JLINK_WriteReg(CFBP, 0x00000000)
T26A4 000:934.307 - 0.017ms returns 0
T26A4 000:934.319 JLINK_SetBPEx(Addr = 0x20000000, Type = 0xFFFFFFF2)
T26A4 000:934.333 - 0.019ms returns 0x00000008
T26A4 000:934.345 JLINK_Go()
T26A4 000:934.370   CPU_ReadMem(4 bytes @ 0xE0001000)
T26A4 000:938.381 - 4.058ms
T26A4 000:938.415 JLINK_IsHalted()
T26A4 000:939.526 - 1.156ms returns FALSE
T26A4 000:939.595 JLINK_HasError()
T26A4 000:940.996 JLINK_IsHalted()
T26A4 000:941.884 - 0.911ms returns FALSE
T26A4 000:941.918 JLINK_HasError()
T26A4 000:944.022 JLINK_IsHalted()
T26A4 000:947.406   CPU_ReadMem(2 bytes @ 0x20000000)
T26A4 000:948.232 - 4.232ms returns TRUE
T26A4 000:948.266 JLINK_ReadReg(R15 (PC))
T26A4 000:948.283 - 0.022ms returns 0x20000000
T26A4 000:948.296 JLINK_ClrBPEx(BPHandle = 0x00000008)
T26A4 000:948.309 - 0.018ms returns 0x00
T26A4 000:948.322 JLINK_ReadReg(R0)
T26A4 000:948.334 - 0.017ms returns 0x00000000
T26A4 000:949.319 JLINK_WriteMem(0x20000180, 0x280 Bytes, ...)
T26A4 000:949.342   Data:  01 D3 A2 F1 37 00 88 42 01 D3 4F F0 FF 30 70 47 ...
T26A4 000:949.370   CPU_WriteMem(640 bytes @ 0x20000180)
T26A4 000:954.265 - 4.970ms returns 0x280
T26A4 000:954.301 JLINK_WriteMem(0x20000400, 0x180 Bytes, ...)
T26A4 000:954.314   Data:  01 22 D1 02 01 48 02 F0 DB FC 10 BD 00 04 02 40 ...
T26A4 000:954.341   CPU_WriteMem(384 bytes @ 0x20000400)
T26A4 000:957.585 - 3.306ms returns 0x180
T26A4 000:957.619 JLINK_HasError()
T26A4 000:957.633 JLINK_WriteReg(R0, 0x08010C00)
T26A4 000:957.649 - 0.022ms returns 0
T26A4 000:957.662 JLINK_WriteReg(R1, 0x00000400)
T26A4 000:957.675 - 0.017ms returns 0
T26A4 000:957.687 JLINK_WriteReg(R2, 0x20000180)
T26A4 000:957.699 - 0.017ms returns 0
T26A4 000:957.711 JLINK_WriteReg(R3, 0x00000000)
T26A4 000:957.723 - 0.017ms returns 0
T26A4 000:957.735 JLINK_WriteReg(R4, 0x00000000)
T26A4 000:957.747 - 0.017ms returns 0
T26A4 000:957.759 JLINK_WriteReg(R5, 0x00000000)
T26A4 000:957.771 - 0.017ms returns 0
T26A4 000:957.783 JLINK_WriteReg(R6, 0x00000000)
T26A4 000:957.795 - 0.017ms returns 0
T26A4 000:957.807 JLINK_WriteReg(R7, 0x00000000)
T26A4 000:957.819 - 0.017ms returns 0
T26A4 000:957.832 JLINK_WriteReg(R8, 0x00000000)
T26A4 000:957.843 - 0.017ms returns 0
T26A4 000:957.863 JLINK_WriteReg(R9, 0x2000017C)
T26A4 000:957.876 - 0.018ms returns 0
T26A4 000:957.889 JLINK_WriteReg(R10, 0x00000000)
T26A4 000:957.901 - 0.017ms returns 0
T26A4 000:957.913 JLINK_WriteReg(R11, 0x00000000)
T26A4 000:957.925 - 0.017ms returns 0
T26A4 000:957.937 JLINK_WriteReg(R12, 0x00000000)
T26A4 000:957.949 - 0.017ms returns 0
T26A4 000:957.962 JLINK_WriteReg(R13 (SP), 0x20001000)
T26A4 000:957.974 - 0.018ms returns 0
T26A4 000:957.986 JLINK_WriteReg(R14, 0x20000001)
T26A4 000:957.998 - 0.017ms returns 0
T26A4 000:958.010 JLINK_WriteReg(R15 (PC), 0x20000108)
T26A4 000:958.022 - 0.017ms returns 0
T26A4 000:958.034 JLINK_WriteReg(XPSR, 0x01000000)
T26A4 000:958.045 - 0.017ms returns 0
T26A4 000:958.058 JLINK_WriteReg(MSP, 0x20001000)
T26A4 000:958.070 - 0.017ms returns 0
T26A4 000:958.082 JLINK_WriteReg(PSP, 0x20001000)
T26A4 000:958.094 - 0.017ms returns 0
T26A4 000:958.106 JLINK_WriteReg(CFBP, 0x00000000)
T26A4 000:958.118 - 0.017ms returns 0
T26A4 000:958.130 JLINK_SetBPEx(Addr = 0x20000000, Type = 0xFFFFFFF2)
T26A4 000:958.144 - 0.019ms returns 0x00000009
T26A4 000:958.157 JLINK_Go()
T26A4 000:958.182   CPU_ReadMem(4 bytes @ 0xE0001000)
T26A4 000:962.503 - 4.369ms
T26A4 000:962.545 JLINK_IsHalted()
T26A4 000:963.506 - 0.983ms returns FALSE
T26A4 000:963.540 JLINK_HasError()
T26A4 000:970.882 JLINK_IsHalted()
T26A4 000:974.282   CPU_ReadMem(2 bytes @ 0x20000000)
T26A4 000:975.445 - 4.586ms returns TRUE
T26A4 000:975.480 JLINK_ReadReg(R15 (PC))
T26A4 000:975.496 - 0.022ms returns 0x20000000
T26A4 000:975.510 JLINK_ClrBPEx(BPHandle = 0x00000009)
T26A4 000:975.522 - 0.018ms returns 0x00
T26A4 000:975.535 JLINK_ReadReg(R0)
T26A4 000:975.547 - 0.017ms returns 0x00000000
T26A4 000:976.510 JLINK_WriteMem(0x20000180, 0x280 Bytes, ...)
T26A4 000:976.532   Data:  10 B5 01 20 0A F0 35 F8 30 B1 13 28 10 D0 17 28 ...
T26A4 000:976.561   CPU_WriteMem(640 bytes @ 0x20000180)
T26A4 000:981.263 - 4.775ms returns 0x280
T26A4 000:981.296 JLINK_WriteMem(0x20000400, 0x180 Bytes, ...)
T26A4 000:981.309   Data:  06 F0 AA FC 00 20 A4 49 08 70 01 20 0C F0 CC FD ...
T26A4 000:981.336   CPU_WriteMem(384 bytes @ 0x20000400)
T26A4 000:984.634 - 3.360ms returns 0x180
T26A4 000:984.669 JLINK_HasError()
T26A4 000:984.682 JLINK_WriteReg(R0, 0x08011000)
T26A4 000:984.699 - 0.022ms returns 0
T26A4 000:984.712 JLINK_WriteReg(R1, 0x00000400)
T26A4 000:984.724 - 0.018ms returns 0
T26A4 000:984.737 JLINK_WriteReg(R2, 0x20000180)
T26A4 000:984.749 - 0.017ms returns 0
T26A4 000:984.761 JLINK_WriteReg(R3, 0x00000000)
T26A4 000:984.773 - 0.017ms returns 0
T26A4 000:984.790 JLINK_WriteReg(R4, 0x00000000)
T26A4 000:984.803 - 0.019ms returns 0
T26A4 000:984.816 JLINK_WriteReg(R5, 0x00000000)
T26A4 000:984.828 - 0.017ms returns 0
T26A4 000:984.841 JLINK_WriteReg(R6, 0x00000000)
T26A4 000:984.852 - 0.017ms returns 0
T26A4 000:984.865 JLINK_WriteReg(R7, 0x00000000)
T26A4 000:984.876 - 0.017ms returns 0
T26A4 000:984.889 JLINK_WriteReg(R8, 0x00000000)
T26A4 000:984.900 - 0.017ms returns 0
T26A4 000:984.913 JLINK_WriteReg(R9, 0x2000017C)
T26A4 000:984.925 - 0.017ms returns 0
T26A4 000:984.937 JLINK_WriteReg(R10, 0x00000000)
T26A4 000:984.949 - 0.017ms returns 0
T26A4 000:984.962 JLINK_WriteReg(R11, 0x00000000)
T26A4 000:984.974 - 0.017ms returns 0
T26A4 000:984.986 JLINK_WriteReg(R12, 0x00000000)
T26A4 000:984.997 - 0.017ms returns 0
T26A4 000:985.010 JLINK_WriteReg(R13 (SP), 0x20001000)
T26A4 000:985.022 - 0.018ms returns 0
T26A4 000:985.035 JLINK_WriteReg(R14, 0x20000001)
T26A4 000:985.046 - 0.017ms returns 0
T26A4 000:985.059 JLINK_WriteReg(R15 (PC), 0x20000108)
T26A4 000:985.071 - 0.017ms returns 0
T26A4 000:985.083 JLINK_WriteReg(XPSR, 0x01000000)
T26A4 000:985.095 - 0.017ms returns 0
T26A4 000:985.107 JLINK_WriteReg(MSP, 0x20001000)
T26A4 000:985.119 - 0.017ms returns 0
T26A4 000:985.131 JLINK_WriteReg(PSP, 0x20001000)
T26A4 000:985.143 - 0.017ms returns 0
T26A4 000:985.155 JLINK_WriteReg(CFBP, 0x00000000)
T26A4 000:985.167 - 0.017ms returns 0
T26A4 000:985.179 JLINK_SetBPEx(Addr = 0x20000000, Type = 0xFFFFFFF2)
T26A4 000:985.193 - 0.019ms returns 0x0000000A
T26A4 000:985.206 JLINK_Go()
T26A4 000:985.230   CPU_ReadMem(4 bytes @ 0xE0001000)
T26A4 000:989.502 - 4.318ms
T26A4 000:989.536 JLINK_IsHalted()
T26A4 000:990.625 - 1.112ms returns FALSE
T26A4 000:990.659 JLINK_HasError()
T26A4 000:993.907 JLINK_IsHalted()
T26A4 000:997.653   CPU_ReadMem(2 bytes @ 0x20000000)
T26A4 000:998.632 - 4.747ms returns TRUE
T26A4 000:998.666 JLINK_ReadReg(R15 (PC))
T26A4 000:998.682 - 0.022ms returns 0x20000000
T26A4 000:998.696 JLINK_ClrBPEx(BPHandle = 0x0000000A)
T26A4 000:998.709 - 0.018ms returns 0x00
T26A4 000:998.722 JLINK_ReadReg(R0)
T26A4 000:998.734 - 0.017ms returns 0x00000000
T26A4 000:999.666 JLINK_WriteMem(0x20000180, 0x280 Bytes, ...)
T26A4 000:999.688   Data:  03 23 01 AA 02 A9 00 90 20 46 0A F0 81 F9 00 E0 ...
T26A4 000:999.716   CPU_WriteMem(640 bytes @ 0x20000180)
T26A4 001:004.484 - 4.841ms returns 0x280
T26A4 001:004.518 JLINK_WriteMem(0x20000400, 0x180 Bytes, ...)
T26A4 001:004.531   Data:  01 20 04 B0 BD E8 F0 81 00 00 02 40 00 0C 02 40 ...
T26A4 001:004.559   CPU_WriteMem(384 bytes @ 0x20000400)
T26A4 001:008.094 - 3.597ms returns 0x180
T26A4 001:008.134 JLINK_HasError()
T26A4 001:008.153 JLINK_WriteReg(R0, 0x08011400)
T26A4 001:008.170 - 0.022ms returns 0
T26A4 001:008.183 JLINK_WriteReg(R1, 0x00000400)
T26A4 001:008.195 - 0.017ms returns 0
T26A4 001:008.207 JLINK_WriteReg(R2, 0x20000180)
T26A4 001:008.218 - 0.016ms returns 0
T26A4 001:008.231 JLINK_WriteReg(R3, 0x00000000)
T26A4 001:008.243 - 0.017ms returns 0
T26A4 001:008.261 JLINK_WriteReg(R4, 0x00000000)
T26A4 001:008.274 - 0.018ms returns 0
T26A4 001:008.286 JLINK_WriteReg(R5, 0x00000000)
T26A4 001:008.298 - 0.017ms returns 0
T26A4 001:008.311 JLINK_WriteReg(R6, 0x00000000)
T26A4 001:008.322 - 0.017ms returns 0
T26A4 001:008.335 JLINK_WriteReg(R7, 0x00000000)
T26A4 001:008.346 - 0.017ms returns 0
T26A4 001:008.359 JLINK_WriteReg(R8, 0x00000000)
T26A4 001:008.370 - 0.017ms returns 0
T26A4 001:008.383 JLINK_WriteReg(R9, 0x2000017C)
T26A4 001:008.394 - 0.017ms returns 0
T26A4 001:008.407 JLINK_WriteReg(R10, 0x00000000)
T26A4 001:008.418 - 0.017ms returns 0
T26A4 001:008.431 JLINK_WriteReg(R11, 0x00000000)
T26A4 001:008.443 - 0.017ms returns 0
T26A4 001:008.455 JLINK_WriteReg(R12, 0x00000000)
T26A4 001:008.467 - 0.017ms returns 0
T26A4 001:008.479 JLINK_WriteReg(R13 (SP), 0x20001000)
T26A4 001:008.491 - 0.018ms returns 0
T26A4 001:008.504 JLINK_WriteReg(R14, 0x20000001)
T26A4 001:008.515 - 0.017ms returns 0
T26A4 001:008.527 JLINK_WriteReg(R15 (PC), 0x20000108)
T26A4 001:008.539 - 0.017ms returns 0
T26A4 001:008.552 JLINK_WriteReg(XPSR, 0x01000000)
T26A4 001:008.563 - 0.017ms returns 0
T26A4 001:008.575 JLINK_WriteReg(MSP, 0x20001000)
T26A4 001:008.587 - 0.016ms returns 0
T26A4 001:008.599 JLINK_WriteReg(PSP, 0x20001000)
T26A4 001:008.611 - 0.017ms returns 0
T26A4 001:008.623 JLINK_WriteReg(CFBP, 0x00000000)
T26A4 001:008.635 - 0.017ms returns 0
T26A4 001:008.647 JLINK_SetBPEx(Addr = 0x20000000, Type = 0xFFFFFFF2)
